
T0A00 000:271 SEGGER J-Link V5.12g Log File (0001ms, 0257ms total)
T0A00 000:271 DLL Compiled: May 27 2016 16:57:47 (0001ms, 0257ms total)
T0A00 000:271 Logging started @ 2016-08-22 21:08 (0001ms, 0257ms total)
T0A00 000:272 JLINK_SetWarnOutHandler(...) (0000ms, 0257ms total)
T0A00 000:272 JLINK_OpenEx(...)
Firmware: J-Link ARM V8 compiled Nov 28 2014 13:44:46
Hardware: V8.00
S/N: 12345678
Feature(s): RDI,FlashDL,FlashBP,JFlash,GDBFull  returns O.K. (0263ms, 0520ms total)
T0A00 000:535 JLINK_SetErrorOutHandler(...) (0000ms, 0520ms total)
T0A00 000:535 JLINK_ExecCommand("ProjectFile = "E:\apingrtt\rt-thread-stable-v2.1.x\bsp\stm32f407VGT6\JLinkSettings.ini"", ...)  returns 0x00 (0001ms, 0521ms total)
T0A00 000:536 JLINK_ExecCommand("Device = STM32F407VGTx", ...)Device "STM32F407VG" selected.  returns 0x00 (0002ms, 0523ms total)
T0A00 000:538 JLINK_ExecCommand("DisableConnectionTimeout", ...)  returns 0x01 (0001ms, 0524ms total)
T0A00 000:539 JLINK_GetHardwareVersion()  returns 0x13880 (0000ms, 0524ms total)
T0A00 000:539 JLINK_GetDLLVersion()  returns 51207 (0000ms, 0524ms total)
T0A00 000:539 JLINK_GetFirmwareString(...) (0000ms, 0524ms total)
T0A00 000:541 JLINK_GetDLLVersion()  returns 51207 (0000ms, 0524ms total)
T0A00 000:541 JLINK_GetCompileDateTime() (0000ms, 0524ms total)
T0A00 000:541 JLINK_GetFirmwareString(...) (0000ms, 0524ms total)
T0A00 000:541 JLINK_GetHardwareVersion()  returns 0x13880 (0000ms, 0524ms total)
T0A00 000:542 JLINK_TIF_Select(JLINKARM_TIF_SWD)  returns 0x00 (0002ms, 0526ms total)
T0A00 000:544 JLINK_SetSpeed(5000) (0000ms, 0526ms total)
T0A00 000:544 JLINK_GetId() >0x108 TIF>Found SWD-DP with ID 0x2BA01477 >0x0D TIF> >0x28 TIF> >0x0D TIF> >0x28 TIF> >0x0D TIF> >0x28 TIF> >0x0D TIF> >0x28 TIF> >0x0D TIF> >0x21 TIF> >0x0D TIF> >0x28 TIF> >0x0D TIF> >0x28 TIF> >0x0D TIF> >0x28 TIF> >0x0D TIF> >0x21 TIF> >0x0D TIF> >0x21 TIF> >0x0D TIF> >0x28 TIF> >0x0D TIF> >0x21 TIF> >0x0D TIF> >0x21 TIF> >0x0D TIF> >0x28 TIF> >0x0D TIF> >0x21 TIF> >0x0D TIF> >0x21 TIF> >0x0D TIF> >0x28 TIF> >0x0D TIF> >0x21 TIF> >0x0D TIF> >0x21 TIF> >0x0D TIF>
 >0x28 TIF> >0x0D TIF> >0x21 TIF> >0x0D TIF> >0x21 TIF> >0x0D TIF> >0x28 TIF> >0x0D TIF> >0x21 TIF> >0x0D TIF> >0x21 TIF> >0x108 TIF>Found SWD-DP with ID 0x2BA01477 >0x0D TIF> >0x28 TIF> >0x0D TIF> >0x28 TIF> >0x0D TIF> >0x28 TIF> >0x0D TIF> >0x28 TIF> >0x0D TIF> >0x21 TIF> >0x0D TIF> >0x28 TIF> >0x0D TIF> >0x28 TIF> >0x0D TIF> >0x21 TIF> >0x0D TIF> >0x21 TIF> >0x0D TIF> >0x21 TIF> >0x0D TIF> >0x28 TIF> >0x0D TIF> >0x28 TIF> >0x0D TIF> >0x28 TIF> >0x0D TIF> >0x21 TIF> >0x0D TIF> >0x21 TIF> >0x0D TIF>
 >0x28 TIF> >0x0D TIF> >0x21 TIF> >0x0D TIF> >0x21 TIF>Found Cortex-M4 r0p1, Little endian. -- CPU_ReadMem(4 bytes @ 0xE000EDF0) -- CPU_ReadMem(4 bytes @ 0xE0002000)FPUnit: 6 code (BP) slots and 2 literal slots -- CPU_ReadMem(4 bytes @ 0xE000EDFC) -- CPU_ReadMem(4 bytes @ 0xE0001000) -- CPU_WriteMem(4 bytes @ 0xE0001000) -- CPU_ReadMem(4 bytes @ 0xE000ED88) -- CPU_WriteMem(4 bytes @ 0xE000ED88) -- CPU_ReadMem(4 bytes @ 0xE000ED88) -- CPU_WriteMem(4 bytes @ 0xE000ED88)CoreSight components:
ROMTbl 0 @ E00FF000 -- CPU_ReadMem(16 bytes @ 0xE00FF000) -- CPU_ReadMem(16 bytes @ 0xE000EFF0) -- CPU_ReadMem(16 bytes @ 0xE000EFE0)ROMTbl 0 [0]: FFF0F000, CID: B105E00D, PID: 000BB00C SCS -- CPU_ReadMem(16 bytes @ 0xE0001FF0) -- CPU_ReadMem(16 bytes @ 0xE0001FE0)ROMTbl 0 [1]: FFF02000, CID: B105E00D, PID: 003BB002 DWT -- CPU_ReadMem(16 bytes @ 0xE0002FF0) -- CPU_ReadMem(16 bytes @ 0xE0002FE0)ROMTbl 0 [2]: FFF03000, CID: B105E00D, PID: 002BB003 FPB -- CPU_ReadMem(16 bytes @ 0xE0000FF0)
 -- CPU_ReadMem(16 bytes @ 0xE0000FE0)ROMTbl 0 [3]: FFF01000, CID: B105E00D, PID: 003BB001 ITM -- CPU_ReadMem(16 bytes @ 0xE00FF010) -- CPU_ReadMem(16 bytes @ 0xE0040FF0) -- CPU_ReadMem(16 bytes @ 0xE0040FE0)ROMTbl 0 [4]: FFF41000, CID: B105900D, PID: 000BB9A1 TPIU -- CPU_ReadMem(16 bytes @ 0xE0041FF0) -- CPU_ReadMem(16 bytes @ 0xE0041FE0)ROMTbl 0 [5]: FFF42000, CID: B105900D, PID: 000BB925 ETM >0x0D TIF> >0x21 TIF>  returns 0x2BA01477 (0056ms, 0582ms total)
T0A00 000:600 JLINK_GetDLLVersion()  returns 51207 (0000ms, 0582ms total)
T0A00 000:600 JLINK_CORE_GetFound()  returns 0xE0000FF (0000ms, 0582ms total)
T0A00 000:600 JLINK_GetDebugInfo(0x100) -- Value=0xE00FF000  returns 0x00 (0000ms, 0582ms total)
T0A00 000:601 JLINK_GetDebugInfo(0x100) -- Value=0xE00FF000  returns 0x00 (0000ms, 0582ms total)
T0A00 000:601 JLINK_GetDebugInfo(0x101) -- Value=0xE0041000  returns 0x00 (0000ms, 0582ms total)
T0A00 000:601 JLINK_GetDebugInfo(0x102) -- Value=0x00000000  returns 0x00 (0000ms, 0582ms total)
T0A00 000:601 JLINK_GetDebugInfo(0x103) -- Value=0xE0040000  returns 0x00 (0000ms, 0582ms total)
T0A00 000:601 JLINK_GetDebugInfo(0x104) -- Value=0xE0000000  returns 0x00 (0000ms, 0582ms total)
T0A00 000:601 JLINK_GetDebugInfo(0x105) -- Value=0xE0001000  returns 0x00 (0000ms, 0582ms total)
T0A00 000:601 JLINK_GetDebugInfo(0x106) -- Value=0xE0002000  returns 0x00 (0000ms, 0582ms total)
T0A00 000:601 JLINK_GetDebugInfo(0x107) -- Value=0xE000E000  returns 0x00 (0000ms, 0582ms total)
T0A00 000:601 JLINK_GetDebugInfo(0x10C) -- Value=0xE000EDF0  returns 0x00 (0000ms, 0582ms total)
T0A00 000:601 JLINK_ReadMemU32(0xE000EF40, 0x0001 Items, ...) -- CPU is running -- CPU_ReadMem(4 bytes @ 0xE000EF40) - Data: 21 00 11 10  returns 0x01 (0001ms, 0583ms total)
T0A00 000:602 JLINK_ReadMemU32(0xE000EF44, 0x0001 Items, ...) -- CPU is running -- CPU_ReadMem(4 bytes @ 0xE000EF44) - Data: 11 00 00 11  returns 0x01 (0000ms, 0583ms total)
T0A00 000:602 JLINK_ReadMemU32(0xE000ED00, 0x0001 Items, ...) -- CPU is running -- CPU_ReadMem(4 bytes @ 0xE000ED00) - Data: 41 C2 0F 41  returns 0x01 (0001ms, 0584ms total)
T0A00 000:603 JLINK_SetResetType(JLINKARM_RESET_TYPE_NORMAL)  returns JLINKARM_RESET_TYPE_NORMAL (0000ms, 0584ms total)
T0A00 000:603 JLINK_Reset() -- CPU is running -- CPU_WriteMem(4 bytes @ 0xE000EDF0) -- CPU is running -- CPU_WriteMem(4 bytes @ 0xE000EDFC) >0x35 TIF> -- CPU is running -- CPU_WriteMem(4 bytes @ 0xE000ED0C) -- CPU is running -- CPU_ReadMem(4 bytes @ 0xE000EDF0) -- CPU is running -- CPU_ReadMem(4 bytes @ 0xE000EDF0) -- CPU is running -- CPU_WriteMem(4 bytes @ 0xE000EDF0) -- CPU is running -- CPU_WriteMem(4 bytes @ 0xE000EDFC) -- CPU is running -- CPU_ReadMem(4 bytes @ 0xE000EDF0)
 -- CPU_WriteMem(4 bytes @ 0xE0002000) -- CPU_ReadMem(4 bytes @ 0xE000EDFC) -- CPU_ReadMem(4 bytes @ 0xE0001000) (0018ms, 0602ms total)
T0A00 000:621 JLINK_ReadReg(R15 (PC))  returns 0x08003FF4 (0000ms, 0602ms total)
T0A00 000:621 JLINK_ReadReg(XPSR)  returns 0x01000000 (0000ms, 0602ms total)
T0A00 000:621 JLINK_Halt()  returns 0x00 (0000ms, 0602ms total)
T0A00 000:621 JLINK_IsHalted()  returns TRUE (0000ms, 0602ms total)
T0A00 000:621 JLINK_ReadMemU32(0xE000EDF0, 0x0001 Items, ...) -- CPU_ReadMem(4 bytes @ 0xE000EDF0) - Data: 03 00 03 00  returns 0x01 (0001ms, 0603ms total)
T0A00 000:622 JLINK_WriteU32(0xE000EDF0, 0xA05F0003) -- CPU_WriteMem(4 bytes @ 0xE000EDF0)  returns 0x00 (0000ms, 0603ms total)
T0A00 000:622 JLINK_WriteU32(0xE000EDFC, 0x01000000) -- CPU_WriteMem(4 bytes @ 0xE000EDFC)  returns 0x00 (0003ms, 0606ms total)
T0A00 000:626 JLINK_GetHWStatus(...)  returns 0x00 (0001ms, 0607ms total)
T0A00 000:627 JLINK_GetNumBPUnits(Type = 0xFFFFFF00)  returns 0x06 (0000ms, 0607ms total)
T0A00 000:627 JLINK_GetNumBPUnits(Type = 0xF0)  returns 0x2000 (0000ms, 0607ms total)
T0A00 000:627 JLINK_GetNumWPUnits()  returns 0x04 (0000ms, 0607ms total)
T0A00 000:627 JLINK_GetSpeed()  returns 0xFA0 (0000ms, 0607ms total)
T0A00 000:628 JLINK_ReadMemU32(0xE000E004, 0x0001 Items, ...) -- CPU_ReadMem(4 bytes @ 0xE000E004) - Data: 02 00 00 00  returns 0x01 (0000ms, 0607ms total)
T0A00 000:628 JLINK_ReadMemU32(0xE000E004, 0x0001 Items, ...) -- CPU_ReadMem(4 bytes @ 0xE000E004) - Data: 02 00 00 00  returns 0x01 (0001ms, 0608ms total)
T0A00 000:629 JLINK_WriteMem(0xE0001000, 0x001C Bytes, ...) - Data: 01 00 00 00 00 00 00 00 00 00 00 00 00 00 00 00 ... -- CPU_WriteMem(28 bytes @ 0xE0001000)  returns 0x1C (0001ms, 0609ms total)
T0A00 000:630 JLINK_ReadMem (0xE0001000, 0x001C Bytes, ...) -- CPU_ReadMem(28 bytes @ 0xE0001000) - Data: 01 00 00 40 00 00 00 00 00 00 00 00 00 00 00 00 ...  returns 0x00 (0001ms, 0610ms total)
T0A00 000:631 JLINK_ReadReg(R15 (PC))  returns 0x08003FF4 (0000ms, 0610ms total)
T0A00 000:631 JLINK_ReadReg(XPSR)  returns 0x01000000 (0000ms, 0610ms total)
T0A00 000:785 JLINK_SetResetType(JLINKARM_RESET_TYPE_NORMAL)  returns JLINKARM_RESET_TYPE_NORMAL (0000ms, 0610ms total)
T0A00 000:785 JLINK_Reset() -- CPU_WriteMem(4 bytes @ 0xE000EDF0) -- CPU_WriteMem(4 bytes @ 0xE000EDFC) >0x35 TIF> -- CPU_WriteMem(4 bytes @ 0xE000ED0C) -- CPU_ReadMem(4 bytes @ 0xE000EDF0) -- CPU_ReadMem(4 bytes @ 0xE000EDF0) -- CPU_WriteMem(4 bytes @ 0xE000EDF0) -- CPU_WriteMem(4 bytes @ 0xE000EDFC) -- CPU is running -- CPU_ReadMem(4 bytes @ 0xE000EDF0) -- CPU_WriteMem(4 bytes @ 0xE0002000) -- CPU_ReadMem(4 bytes @ 0xE000EDFC) -- CPU_ReadMem(4 bytes @ 0xE0001000) (0016ms, 0626ms total)
T0A00 000:801 JLINK_ReadReg(R15 (PC))  returns 0x08003FF4 (0000ms, 0626ms total)
T0A00 000:801 JLINK_ReadReg(XPSR)  returns 0x01000000 (0000ms, 0626ms total)
T0A00 000:802 JLINK_ReadMem (0x08003FF4, 0x000C Bytes, ...) -- CPU_ReadMem(64 bytes @ 0x08003FC0) -- Updating C cache (64 bytes @ 0x08003FC0) -- Read from C cache (12 bytes @ 0x08003FF4) - Data: 09 48 80 47 09 48 00 47 FE E7 FE E7  returns 0x00 (0001ms, 0627ms total)
T0A00 000:803 JLINK_ReadMem (0x08004000, 0x0030 Bytes, ...) -- CPU_ReadMem(64 bytes @ 0x08004000) -- Updating C cache (64 bytes @ 0x08004000) -- Read from C cache (48 bytes @ 0x08004000) - Data: FE E7 FE E7 FE E7 FE E7 FE E7 FE E7 FE E7 FE E7 ...  returns 0x00 (0001ms, 0628ms total)
T0A00 000:909 JLINK_ReadMem (0x40020C00, 0x0014 Bytes, ...) -- CPU_ReadMem(20 bytes @ 0x40020C00) - Data: 00 00 00 00 00 00 00 00 00 00 00 00 00 00 00 00 ...  returns 0x00 (0001ms, 0629ms total)
T0A00 000:910 JLINK_ReadMem (0x40020C14, 0x0004 Bytes, ...) -- CPU_ReadMem(4 bytes @ 0x40020C14) - Data: 00 00 00 00  returns 0x00 (0001ms, 0630ms total)
T0A00 000:911 JLINK_ReadMem (0x40020C1C, 0x0008 Bytes, ...) -- CPU_ReadMem(8 bytes @ 0x40020C1C) - Data: 00 00 00 00 00 00 00 00  returns 0x00 (0000ms, 0630ms total)
T0A00 000:911 JLINK_ReadMem (0x40020C24, 0x0004 Bytes, ...) -- CPU_ReadMem(4 bytes @ 0x40020C24) - Data: 00 00 00 00  returns 0x00 (0001ms, 0631ms total)
T24C4 001:850 JLINK_SetBPEx(Addr = 0x08007F52, Type = 0xFFFFFFF2)  returns 0x00000001 (0000ms, 0631ms total)
T24C4 001:850 JLINK_Go() -- CPU_WriteMem(4 bytes @ 0xE0002000) -- CPU_ReadMem(4 bytes @ 0xE0001000) -- CPU_WriteMem(4 bytes @ 0xE0002008) -- CPU_WriteMem(4 bytes @ 0xE000200C) -- CPU_WriteMem(4 bytes @ 0xE0002010) -- CPU_WriteMem(4 bytes @ 0xE0002014) -- CPU_WriteMem(4 bytes @ 0xE0002018) -- CPU_WriteMem(4 bytes @ 0xE000201C) -- CPU_WriteMem(4 bytes @ 0xE0001004) (0006ms, 0637ms total)
T24C4 001:956 JLINK_IsHalted()  returns TRUE (0002ms, 0639ms total)
T24C4 001:958 JLINK_Halt()  returns 0x00 (0000ms, 0637ms total)
T24C4 001:958 JLINK_IsHalted()  returns TRUE (0000ms, 0637ms total)
T24C4 001:958 JLINK_IsHalted()  returns TRUE (0000ms, 0637ms total)
T24C4 001:958 JLINK_IsHalted()  returns TRUE (0000ms, 0637ms total)
T24C4 001:958 JLINK_ReadReg(R15 (PC))  returns 0x08007F52 (0000ms, 0637ms total)
T24C4 001:958 JLINK_ReadReg(XPSR)  returns 0x01000000 (0000ms, 0637ms total)
T24C4 001:958 JLINK_ClrBPEx(BPHandle = 0x00000001)  returns 0x00 (0000ms, 0637ms total)
T24C4 001:958 JLINK_ReadMemU32(0xE000ED30, 0x0001 Items, ...) -- CPU_ReadMem(4 bytes @ 0xE000ED30) - Data: 03 00 00 00  returns 0x01 (0001ms, 0638ms total)
T24C4 001:959 JLINK_ReadMemU32(0xE0001028, 0x0001 Items, ...) -- CPU_ReadMem(4 bytes @ 0xE0001028) - Data: 00 00 00 00  returns 0x01 (0000ms, 0638ms total)
T24C4 001:959 JLINK_ReadMemU32(0xE0001038, 0x0001 Items, ...) -- CPU_ReadMem(4 bytes @ 0xE0001038) - Data: 00 02 00 00  returns 0x01 (0001ms, 0639ms total)
T24C4 001:960 JLINK_ReadMemU32(0xE0001048, 0x0001 Items, ...) -- CPU_ReadMem(4 bytes @ 0xE0001048) - Data: 00 00 00 00  returns 0x01 (0000ms, 0639ms total)
T24C4 001:961 JLINK_ReadMemU32(0xE0001058, 0x0001 Items, ...) -- CPU_ReadMem(4 bytes @ 0xE0001058) - Data: 00 00 00 00  returns 0x01 (0000ms, 0640ms total)
T24C4 001:961 JLINK_ReadReg(R0)  returns 0x2001C818 (0000ms, 0640ms total)
T24C4 001:961 JLINK_ReadReg(R1)  returns 0x2001D018 (0000ms, 0640ms total)
T24C4 001:961 JLINK_ReadReg(R2)  returns 0x2001D018 (0000ms, 0640ms total)
T24C4 001:961 JLINK_ReadReg(R3)  returns 0x2001D018 (0000ms, 0640ms total)
T24C4 001:961 JLINK_ReadReg(R4)  returns 0x00000000 (0000ms, 0640ms total)
T24C4 001:961 JLINK_ReadReg(R5)  returns 0x2001C7B8 (0000ms, 0640ms total)
T24C4 001:961 JLINK_ReadReg(R6)  returns 0x00000000 (0000ms, 0640ms total)
T24C4 001:961 JLINK_ReadReg(R7)  returns 0x00000000 (0000ms, 0640ms total)
T24C4 001:961 JLINK_ReadReg(R8)  returns 0x00000000 (0000ms, 0640ms total)
T24C4 001:961 JLINK_ReadReg(R9)  returns 0x00000000 (0000ms, 0640ms total)
T24C4 001:961 JLINK_ReadReg(R10)  returns 0x0802B7C0 (0000ms, 0640ms total)
T24C4 001:961 JLINK_ReadReg(R11)  returns 0x00000000 (0000ms, 0640ms total)
T24C4 001:961 JLINK_ReadReg(R12)  returns 0x2001C7F8 (0000ms, 0640ms total)
T24C4 001:961 JLINK_ReadReg(R13 (SP))  returns 0x2001D418 (0000ms, 0640ms total)
T24C4 001:961 JLINK_ReadReg(R14)  returns 0x08000269 (0000ms, 0640ms total)
T24C4 001:961 JLINK_ReadReg(R15 (PC))  returns 0x08007F52 (0000ms, 0640ms total)
T24C4 001:961 JLINK_ReadReg(XPSR)  returns 0x01000000 (0001ms, 0641ms total)
T24C4 001:962 JLINK_ReadReg(MSP)  returns 0x2001D418 (0000ms, 0641ms total)
T24C4 001:962 JLINK_ReadReg(PSP)  returns 0x00000000 (0000ms, 0641ms total)
T24C4 001:962 JLINK_ReadReg(CFBP)  returns 0x04000000 (0000ms, 0641ms total)
T24C4 001:962 JLINK_ReadReg(FPSCR)  returns 0x03000000 (0003ms, 0644ms total)
T24C4 001:965 JLINK_ReadReg(FPS0)  returns 0x00000000 (0000ms, 0644ms total)
T24C4 001:965 JLINK_ReadReg(FPS1)  returns 0x00000000 (0000ms, 0644ms total)
T24C4 001:965 JLINK_ReadReg(FPS2)  returns 0x00000000 (0000ms, 0644ms total)
T24C4 001:965 JLINK_ReadReg(FPS3)  returns 0x00000000 (0000ms, 0644ms total)
T24C4 001:965 JLINK_ReadReg(FPS4)  returns 0x00000000 (0000ms, 0644ms total)
T24C4 001:965 JLINK_ReadReg(FPS5)  returns 0x00000000 (0000ms, 0644ms total)
T24C4 001:965 JLINK_ReadReg(FPS6)  returns 0x00000000 (0000ms, 0644ms total)
T24C4 001:965 JLINK_ReadReg(FPS7)  returns 0x00000000 (0000ms, 0644ms total)
T24C4 001:965 JLINK_ReadReg(FPS8)  returns 0x00000000 (0000ms, 0644ms total)
T24C4 001:965 JLINK_ReadReg(FPS9)  returns 0x00000000 (0000ms, 0644ms total)
T24C4 001:965 JLINK_ReadReg(FPS10)  returns 0x00000000 (0000ms, 0644ms total)
T24C4 001:965 JLINK_ReadReg(FPS11)  returns 0x00000000 (0000ms, 0644ms total)
T24C4 001:965 JLINK_ReadReg(FPS12)  returns 0x00000000 (0000ms, 0644ms total)
T24C4 001:965 JLINK_ReadReg(FPS13)  returns 0x00000000 (0000ms, 0644ms total)
T24C4 001:965 JLINK_ReadReg(FPS14)  returns 0x00000000 (0000ms, 0644ms total)
T24C4 001:965 JLINK_ReadReg(FPS15)  returns 0x00000000 (0000ms, 0644ms total)
T24C4 001:966 JLINK_ReadReg(FPS16)  returns 0x00000000 (0000ms, 0645ms total)
T24C4 001:966 JLINK_ReadReg(FPS17)  returns 0x00000000 (0000ms, 0645ms total)
T24C4 001:966 JLINK_ReadReg(FPS18)  returns 0x00000000 (0000ms, 0645ms total)
T24C4 001:966 JLINK_ReadReg(FPS19)  returns 0x00000000 (0000ms, 0645ms total)
T24C4 001:966 JLINK_ReadReg(FPS20)  returns 0x00000000 (0000ms, 0645ms total)
T24C4 001:966 JLINK_ReadReg(FPS21)  returns 0x00000000 (0000ms, 0645ms total)
T24C4 001:966 JLINK_ReadReg(FPS22)  returns 0x00000000 (0000ms, 0645ms total)
T24C4 001:966 JLINK_ReadReg(FPS23)  returns 0x00000000 (0000ms, 0645ms total)
T24C4 001:966 JLINK_ReadReg(FPS24)  returns 0x00000000 (0000ms, 0645ms total)
T24C4 001:966 JLINK_ReadReg(FPS25)  returns 0x00000000 (0000ms, 0645ms total)
T24C4 001:966 JLINK_ReadReg(FPS26)  returns 0x00000000 (0000ms, 0645ms total)
T24C4 001:966 JLINK_ReadReg(FPS27)  returns 0x00000000 (0000ms, 0645ms total)
T24C4 001:966 JLINK_ReadReg(FPS28)  returns 0x00000000 (0000ms, 0645ms total)
T24C4 001:966 JLINK_ReadReg(FPS29)  returns 0x00000000 (0000ms, 0645ms total)
T24C4 001:966 JLINK_ReadReg(FPS30)  returns 0x00000000 (0000ms, 0645ms total)
T24C4 001:966 JLINK_ReadReg(FPS31)  returns 0x00000000 (0000ms, 0645ms total)
T0A00 001:971 JLINK_ReadMem (0x40020C00, 0x0014 Bytes, ...) -- CPU_ReadMem(20 bytes @ 0x40020C00) - Data: 00 00 00 00 00 00 00 00 00 00 00 00 00 00 00 00 ...  returns 0x00 (0001ms, 0646ms total)
T0A00 001:972 JLINK_ReadMem (0x40020C14, 0x0004 Bytes, ...) -- CPU_ReadMem(4 bytes @ 0x40020C14) - Data: 00 00 00 00  returns 0x00 (0000ms, 0646ms total)
T0A00 001:973 JLINK_ReadMem (0x40020C1C, 0x0008 Bytes, ...) -- CPU_ReadMem(8 bytes @ 0x40020C1C) - Data: 00 00 00 00 00 00 00 00  returns 0x00 (0000ms, 0646ms total)
T0A00 001:973 JLINK_ReadMem (0x40020C24, 0x0004 Bytes, ...) -- CPU_ReadMem(4 bytes @ 0x40020C24) - Data: 00 00 00 00  returns 0x00 (0001ms, 0647ms total)
T0A00 001:975 JLINK_ReadMem (0x08007F52, 0x0002 Bytes, ...) -- CPU_ReadMem(64 bytes @ 0x08007F40) -- Updating C cache (64 bytes @ 0x08007F40) -- Read from C cache (2 bytes @ 0x08007F52) - Data: 10 B5  returns 0x00 (0001ms, 0648ms total)
T0A00 001:976 JLINK_ReadMem (0x08007F54, 0x003C Bytes, ...) -- CPU_ReadMem(64 bytes @ 0x08007F80) -- Updating C cache (64 bytes @ 0x08007F80) -- Read from C cache (60 bytes @ 0x08007F54) - Data: 03 F0 BC FF FF F7 E6 FF 00 20 10 BD 90 B6 02 08 ...  returns 0x00 (0001ms, 0649ms total)
T24C4 003:044 JLINK_Go() -- CPU_ReadMem(4 bytes @ 0xE0001000) -- CPU_WriteMem(4 bytes @ 0xE0002008) (0003ms, 0652ms total)
T24C4 003:147 JLINK_IsHalted()  returns FALSE (0000ms, 0652ms total)
T24C4 003:247 JLINK_IsHalted()  returns FALSE (0000ms, 0652ms total)
T24C4 003:347 JLINK_IsHalted()  returns FALSE (0000ms, 0652ms total)
T24C4 003:447 JLINK_IsHalted()  returns FALSE (0000ms, 0652ms total)
T24C4 003:547 JLINK_IsHalted()  returns FALSE (0000ms, 0652ms total)
T24C4 003:647 JLINK_IsHalted()  returns FALSE (0000ms, 0652ms total)
T24C4 003:747 JLINK_IsHalted()  returns FALSE (0000ms, 0652ms total)
T24C4 003:847 JLINK_IsHalted()  returns FALSE (0000ms, 0652ms total)
T24C4 003:952 JLINK_IsHalted()  returns FALSE (0001ms, 0653ms total)
T24C4 004:053 JLINK_IsHalted()  returns FALSE (0000ms, 0652ms total)
T24C4 004:153 JLINK_IsHalted()  returns FALSE (0000ms, 0652ms total)
T24C4 004:253 JLINK_IsHalted()  returns FALSE (0000ms, 0652ms total)
T24C4 004:353 JLINK_IsHalted()  returns FALSE (0001ms, 0653ms total)
T24C4 004:454 JLINK_IsHalted()  returns FALSE (0000ms, 0652ms total)
T24C4 004:555 JLINK_IsHalted()  returns FALSE (0002ms, 0654ms total)
T24C4 004:657 JLINK_IsHalted()  returns FALSE (0000ms, 0652ms total)
T24C4 004:757 JLINK_IsHalted()  returns FALSE (0000ms, 0652ms total)
T24C4 004:857 JLINK_IsHalted()  returns FALSE (0000ms, 0652ms total)
T24C4 004:957 JLINK_IsHalted()  returns FALSE (0000ms, 0652ms total)
T24C4 005:057 JLINK_IsHalted()  returns FALSE (0001ms, 0653ms total)
T24C4 005:158 JLINK_IsHalted()  returns FALSE (0000ms, 0652ms total)
T24C4 005:258 JLINK_IsHalted()  returns FALSE (0001ms, 0653ms total)
T24C4 005:359 JLINK_IsHalted()  returns FALSE (0000ms, 0652ms total)
T24C4 005:459 JLINK_IsHalted()  returns FALSE (0001ms, 0653ms total)
T24C4 005:560 JLINK_IsHalted()  returns FALSE (0000ms, 0652ms total)
T24C4 005:660 JLINK_IsHalted()  returns FALSE (0001ms, 0653ms total)
T24C4 005:761 JLINK_IsHalted()  returns FALSE (0000ms, 0652ms total)
T24C4 005:861 JLINK_IsHalted()  returns FALSE (0000ms, 0652ms total)
T24C4 005:961 JLINK_IsHalted()  returns FALSE (0000ms, 0652ms total)
T24C4 006:061 JLINK_IsHalted()  returns FALSE (0000ms, 0652ms total)
T24C4 006:161 JLINK_IsHalted()  returns FALSE (0000ms, 0652ms total)
T24C4 006:261 JLINK_IsHalted()  returns FALSE (0000ms, 0652ms total)
T24C4 006:361 JLINK_IsHalted()  returns FALSE (0000ms, 0652ms total)
T24C4 006:462 JLINK_IsHalted()  returns FALSE (0000ms, 0652ms total)
T24C4 006:562 JLINK_IsHalted()  returns FALSE (0000ms, 0652ms total)
T24C4 006:662 JLINK_IsHalted()  returns FALSE (0001ms, 0653ms total)
T24C4 006:763 JLINK_IsHalted()  returns FALSE (0000ms, 0652ms total)
T24C4 006:863 JLINK_IsHalted()  returns FALSE (0000ms, 0652ms total)
T24C4 006:963 JLINK_IsHalted()  returns FALSE (0000ms, 0652ms total)
T24C4 007:063 JLINK_IsHalted()  returns FALSE (0000ms, 0652ms total)
T24C4 007:163 JLINK_IsHalted()  returns FALSE (0000ms, 0652ms total)
T24C4 007:263 JLINK_IsHalted()  returns FALSE (0000ms, 0652ms total)
T24C4 007:363 JLINK_IsHalted()  returns FALSE (0000ms, 0652ms total)
T24C4 007:463 JLINK_IsHalted()  returns FALSE (0000ms, 0652ms total)
T24C4 007:563 JLINK_IsHalted()  returns FALSE (0000ms, 0652ms total)
T24C4 007:663 JLINK_IsHalted()  returns FALSE (0001ms, 0653ms total)
T24C4 007:764 JLINK_IsHalted()  returns FALSE (0000ms, 0652ms total)
T24C4 007:864 JLINK_IsHalted()  returns FALSE (0000ms, 0652ms total)
T24C4 007:964 JLINK_IsHalted()  returns FALSE (0000ms, 0652ms total)
T24C4 008:064 JLINK_IsHalted()  returns FALSE (0000ms, 0652ms total)
T24C4 008:164 JLINK_IsHalted()  returns FALSE (0000ms, 0652ms total)
T24C4 008:264 JLINK_IsHalted()  returns FALSE (0000ms, 0652ms total)
T24C4 008:364 JLINK_IsHalted()  returns FALSE (0000ms, 0652ms total)
T24C4 008:464 JLINK_IsHalted()  returns FALSE (0000ms, 0652ms total)
T24C4 008:564 JLINK_IsHalted()  returns FALSE (0000ms, 0652ms total)
T24C4 008:664 JLINK_IsHalted()  returns FALSE (0000ms, 0652ms total)
T24C4 008:764 JLINK_IsHalted()  returns FALSE (0000ms, 0652ms total)
T24C4 008:865 JLINK_IsHalted()  returns FALSE (0000ms, 0652ms total)
T24C4 008:965 JLINK_IsHalted()  returns FALSE (0000ms, 0652ms total)
T24C4 009:065 JLINK_IsHalted()  returns FALSE (0000ms, 0652ms total)
T24C4 009:165 JLINK_IsHalted()  returns FALSE (0000ms, 0652ms total)
T24C4 009:265 JLINK_IsHalted()  returns FALSE (0000ms, 0652ms total)
T24C4 009:365 JLINK_IsHalted()  returns FALSE (0000ms, 0652ms total)
T24C4 009:465 JLINK_IsHalted()  returns FALSE (0000ms, 0652ms total)
T24C4 009:565 JLINK_IsHalted()  returns FALSE (0000ms, 0652ms total)
T24C4 009:665 JLINK_IsHalted()  returns FALSE (0000ms, 0652ms total)
T24C4 009:765 JLINK_IsHalted()  returns FALSE (0000ms, 0652ms total)
T24C4 009:865 JLINK_IsHalted()  returns FALSE (0000ms, 0652ms total)
T24C4 009:965 JLINK_IsHalted()  returns FALSE (0000ms, 0652ms total)
T24C4 010:067 JLINK_IsHalted()  returns FALSE (0001ms, 0653ms total)
T24C4 010:168 JLINK_IsHalted()  returns FALSE (0000ms, 0652ms total)
T24C4 010:268 JLINK_IsHalted()  returns FALSE (0000ms, 0652ms total)
T24C4 010:368 JLINK_IsHalted()  returns FALSE (0000ms, 0652ms total)
T24C4 010:468 JLINK_IsHalted()  returns FALSE (0001ms, 0653ms total)
T24C4 010:569 JLINK_IsHalted()  returns FALSE (0000ms, 0652ms total)
T24C4 010:669 JLINK_IsHalted()  returns FALSE (0000ms, 0652ms total)
T24C4 010:769 JLINK_IsHalted()  returns FALSE (0000ms, 0652ms total)
T24C4 010:869 JLINK_IsHalted()  returns FALSE (0000ms, 0652ms total)
T24C4 010:969 JLINK_IsHalted()  returns FALSE (0000ms, 0652ms total)
T24C4 011:069 JLINK_IsHalted()  returns FALSE (0000ms, 0652ms total)
T24C4 011:169 JLINK_IsHalted()  returns FALSE (0000ms, 0652ms total)
T24C4 011:269 JLINK_Halt()  returns 0x00 (0002ms, 0654ms total)
T24C4 011:271 JLINK_IsHalted()  returns TRUE (0000ms, 0654ms total)
T24C4 011:271 JLINK_IsHalted()  returns TRUE (0000ms, 0654ms total)
T24C4 011:271 JLINK_IsHalted()  returns TRUE (0000ms, 0654ms total)
T24C4 011:271 JLINK_ReadReg(R15 (PC))  returns 0x08009D0C (0000ms, 0654ms total)
T24C4 011:271 JLINK_ReadReg(XPSR)  returns 0x21000000 (0000ms, 0654ms total)
T24C4 011:271 JLINK_ReadMemU32(0xE000ED30, 0x0001 Items, ...) -- CPU_ReadMem(4 bytes @ 0xE000ED30) - Data: 01 00 00 00  returns 0x01 (0001ms, 0655ms total)
T24C4 011:272 JLINK_ReadMemU32(0xE0001028, 0x0001 Items, ...) -- CPU_ReadMem(4 bytes @ 0xE0001028) - Data: 00 00 00 00  returns 0x01 (0001ms, 0656ms total)
T24C4 011:273 JLINK_ReadMemU32(0xE0001038, 0x0001 Items, ...) -- CPU_ReadMem(4 bytes @ 0xE0001038) - Data: 00 02 00 00  returns 0x01 (0000ms, 0656ms total)
T24C4 011:273 JLINK_ReadMemU32(0xE0001048, 0x0001 Items, ...) -- CPU_ReadMem(4 bytes @ 0xE0001048) - Data: 00 00 00 00  returns 0x01 (0001ms, 0657ms total)
T24C4 011:274 JLINK_ReadMemU32(0xE0001058, 0x0001 Items, ...) -- CPU_ReadMem(4 bytes @ 0xE0001058) - Data: 00 00 00 00  returns 0x01 (0000ms, 0657ms total)
T24C4 011:275 JLINK_ReadReg(R0)  returns 0x20000814 (0000ms, 0657ms total)
T24C4 011:275 JLINK_ReadReg(R1)  returns 0x08000E30 (0000ms, 0657ms total)
T24C4 011:275 JLINK_ReadReg(R2)  returns 0x00000008 (0000ms, 0657ms total)
T24C4 011:275 JLINK_ReadReg(R3)  returns 0x20000818 (0000ms, 0657ms total)
T24C4 011:275 JLINK_ReadReg(R4)  returns 0x20000820 (0000ms, 0657ms total)
T24C4 011:275 JLINK_ReadReg(R5)  returns 0x200000C4 (0000ms, 0657ms total)
T24C4 011:275 JLINK_ReadReg(R6)  returns 0x08000E30 (0000ms, 0657ms total)
T24C4 011:275 JLINK_ReadReg(R7)  returns 0x20000814 (0000ms, 0657ms total)
T24C4 011:275 JLINK_ReadReg(R8)  returns 0xDEADBEEF (0000ms, 0657ms total)
T24C4 011:275 JLINK_ReadReg(R9)  returns 0xDEADBEEF (0000ms, 0657ms total)
T24C4 011:275 JLINK_ReadReg(R10)  returns 0xDEADBEEF (0000ms, 0657ms total)
T24C4 011:275 JLINK_ReadReg(R11)  returns 0xDEADBEEF (0000ms, 0657ms total)
T24C4 011:275 JLINK_ReadReg(R12)  returns 0x000000A0 (0000ms, 0657ms total)
T24C4 011:275 JLINK_ReadReg(R13 (SP))  returns 0x2001DC4C (0000ms, 0657ms total)
T24C4 011:275 JLINK_ReadReg(R14)  returns 0x08007FFD (0000ms, 0657ms total)
T24C4 011:275 JLINK_ReadReg(R15 (PC))  returns 0x08009D0C (0000ms, 0657ms total)
T24C4 011:275 JLINK_ReadReg(XPSR)  returns 0x21000000 (0000ms, 0657ms total)
T24C4 011:275 JLINK_ReadReg(MSP)  returns 0x2001D3F8 (0000ms, 0657ms total)
T24C4 011:275 JLINK_ReadReg(PSP)  returns 0x2001DC4C (0000ms, 0657ms total)
T24C4 011:275 JLINK_ReadReg(CFBP)  returns 0x02000000 (0000ms, 0657ms total)
T24C4 011:275 JLINK_ReadReg(FPSCR)  returns 0x03000000 (0004ms, 0661ms total)
T24C4 011:279 JLINK_ReadReg(FPS0)  returns 0x00000000 (0000ms, 0661ms total)
T24C4 011:279 JLINK_ReadReg(FPS1)  returns 0x00000000 (0001ms, 0662ms total)
T24C4 011:280 JLINK_ReadReg(FPS2)  returns 0x00000000 (0000ms, 0662ms total)
T24C4 011:280 JLINK_ReadReg(FPS3)  returns 0x00000000 (0000ms, 0662ms total)
T24C4 011:280 JLINK_ReadReg(FPS4)  returns 0x00000000 (0000ms, 0662ms total)
T24C4 011:280 JLINK_ReadReg(FPS5)  returns 0x00000000 (0000ms, 0662ms total)
T24C4 011:280 JLINK_ReadReg(FPS6)  returns 0x00000000 (0000ms, 0662ms total)
T24C4 011:280 JLINK_ReadReg(FPS7)  returns 0x00000000 (0000ms, 0662ms total)
T24C4 011:280 JLINK_ReadReg(FPS8)  returns 0x00000000 (0000ms, 0662ms total)
T24C4 011:280 JLINK_ReadReg(FPS9)  returns 0x00000000 (0000ms, 0662ms total)
T24C4 011:280 JLINK_ReadReg(FPS10)  returns 0x00000000 (0000ms, 0662ms total)
T24C4 011:280 JLINK_ReadReg(FPS11)  returns 0x00000000 (0000ms, 0662ms total)
T24C4 011:280 JLINK_ReadReg(FPS12)  returns 0x00000000 (0000ms, 0662ms total)
T24C4 011:280 JLINK_ReadReg(FPS13)  returns 0x00000000 (0000ms, 0662ms total)
T24C4 011:280 JLINK_ReadReg(FPS14)  returns 0x00000000 (0000ms, 0662ms total)
T24C4 011:280 JLINK_ReadReg(FPS15)  returns 0x00000000 (0000ms, 0662ms total)
T24C4 011:280 JLINK_ReadReg(FPS16)  returns 0x00000000 (0000ms, 0662ms total)
T24C4 011:280 JLINK_ReadReg(FPS17)  returns 0x00000000 (0000ms, 0662ms total)
T24C4 011:280 JLINK_ReadReg(FPS18)  returns 0x00000000 (0000ms, 0662ms total)
T24C4 011:280 JLINK_ReadReg(FPS19)  returns 0x00000000 (0000ms, 0662ms total)
T24C4 011:280 JLINK_ReadReg(FPS20)  returns 0x00000000 (0000ms, 0662ms total)
T24C4 011:280 JLINK_ReadReg(FPS21)  returns 0x00000000 (0000ms, 0662ms total)
T24C4 011:280 JLINK_ReadReg(FPS22)  returns 0x00000000 (0000ms, 0662ms total)
T24C4 011:280 JLINK_ReadReg(FPS23)  returns 0x00000000 (0000ms, 0662ms total)
T24C4 011:280 JLINK_ReadReg(FPS24)  returns 0x00000000 (0000ms, 0662ms total)
T24C4 011:280 JLINK_ReadReg(FPS25)  returns 0x00000000 (0000ms, 0662ms total)
T24C4 011:280 JLINK_ReadReg(FPS26)  returns 0x00000000 (0000ms, 0662ms total)
T24C4 011:280 JLINK_ReadReg(FPS27)  returns 0x00000000 (0000ms, 0662ms total)
T24C4 011:280 JLINK_ReadReg(FPS28)  returns 0x00000000 (0000ms, 0662ms total)
T24C4 011:280 JLINK_ReadReg(FPS29)  returns 0x00000000 (0000ms, 0662ms total)
T24C4 011:280 JLINK_ReadReg(FPS30)  returns 0x00000000 (0000ms, 0662ms total)
T24C4 011:280 JLINK_ReadReg(FPS31)  returns 0x00000000 (0000ms, 0662ms total)
T0A00 011:282 JLINK_ReadMem (0x2001DC54, 0x0004 Bytes, ...) -- CPU_ReadMem(64 bytes @ 0x2001DC40) -- Updating C cache (64 bytes @ 0x2001DC40) -- Read from C cache (4 bytes @ 0x2001DC54) - Data: FD 7F 00 08  returns 0x00 (0001ms, 0663ms total)
T0A00 011:283 JLINK_ReadMem (0x2001DC4C, 0x0004 Bytes, ...) -- Read from C cache (4 bytes @ 0x2001DC4C) - Data: 20 08 00 20  returns 0x00 (0000ms, 0663ms total)
T0A00 011:283 JLINK_ReadMem (0x2001DC50, 0x0004 Bytes, ...) -- Read from C cache (4 bytes @ 0x2001DC50) - Data: C4 00 00 20  returns 0x00 (0000ms, 0663ms total)
T0A00 011:283 JLINK_ReadMem (0x2001DC6C, 0x0004 Bytes, ...) -- Read from C cache (4 bytes @ 0x2001DC6C) - Data: BF 3D 00 08  returns 0x00 (0000ms, 0663ms total)
T0A00 011:283 JLINK_ReadMem (0x2001DC58, 0x0004 Bytes, ...) -- Read from C cache (4 bytes @ 0x2001DC58) - Data: 4C 0E 00 08  returns 0x00 (0000ms, 0663ms total)
T0A00 011:283 JLINK_ReadMem (0x2001DC5C, 0x0004 Bytes, ...) -- Read from C cache (4 bytes @ 0x2001DC5C) - Data: 30 0E 00 08  returns 0x00 (0001ms, 0664ms total)
T0A00 011:284 JLINK_ReadMem (0x2001DC60, 0x0004 Bytes, ...) -- Read from C cache (4 bytes @ 0x2001DC60) - Data: EF BE AD DE  returns 0x00 (0000ms, 0664ms total)
T0A00 011:284 JLINK_ReadMem (0x2001DC64, 0x0004 Bytes, ...) -- Read from C cache (4 bytes @ 0x2001DC64) - Data: 00 00 00 00  returns 0x00 (0000ms, 0664ms total)
T0A00 011:284 JLINK_ReadMem (0x2001DC68, 0x0004 Bytes, ...) -- Read from C cache (4 bytes @ 0x2001DC68) - Data: EF BE AD DE  returns 0x00 (0000ms, 0664ms total)
T0A00 011:284 JLINK_ReadMem (0x2001DC84, 0x0004 Bytes, ...) -- CPU_ReadMem(64 bytes @ 0x2001DC80) -- Updating C cache (64 bytes @ 0x2001DC80) -- Read from C cache (4 bytes @ 0x2001DC84) - Data: 05 0E 00 08  returns 0x00 (0001ms, 0665ms total)
T0A00 011:285 JLINK_ReadMem (0x2001DC70, 0x0004 Bytes, ...) -- Read from C cache (4 bytes @ 0x2001DC70) - Data: 00 00 00 00  returns 0x00 (0000ms, 0665ms total)
T0A00 011:285 JLINK_ReadMem (0x2001DC74, 0x0004 Bytes, ...) -- Read from C cache (4 bytes @ 0x2001DC74) - Data: EF BE AD DE  returns 0x00 (0000ms, 0665ms total)
T0A00 011:285 JLINK_ReadMem (0x2001DC78, 0x0004 Bytes, ...) -- Read from C cache (4 bytes @ 0x2001DC78) - Data: EF BE AD DE  returns 0x00 (0000ms, 0665ms total)
T0A00 011:285 JLINK_ReadMem (0x2001DC7C, 0x0004 Bytes, ...) -- Read from C cache (4 bytes @ 0x2001DC7C) - Data: EF BE AD DE  returns 0x00 (0000ms, 0665ms total)
T0A00 011:285 JLINK_ReadMem (0x2001DC80, 0x0004 Bytes, ...) -- Read from C cache (4 bytes @ 0x2001DC80) - Data: EF BE AD DE  returns 0x00 (0000ms, 0665ms total)
T0A00 011:285 JLINK_ReadMem (0x2001DC9C, 0x0004 Bytes, ...) -- Read from C cache (4 bytes @ 0x2001DC9C) - Data: A1 7E 00 08  returns 0x00 (0000ms, 0665ms total)
T0A00 011:285 JLINK_ReadMem (0x2001DCAC, 0x0004 Bytes, ...) -- Read from C cache (4 bytes @ 0x2001DCAC) - Data: 69 B3 00 08  returns 0x00 (0000ms, 0665ms total)
T0A00 011:286 JLINK_ReadMem (0x2001DCA4, 0x0004 Bytes, ...) -- Read from C cache (4 bytes @ 0x2001DCA4) - Data: EF BE AD DE  returns 0x00 (0000ms, 0665ms total)
T0A00 011:286 JLINK_ReadMem (0x2001DCA8, 0x0004 Bytes, ...) -- Read from C cache (4 bytes @ 0x2001DCA8) - Data: EF BE AD DE  returns 0x00 (0000ms, 0665ms total)
T0A00 011:286 JLINK_ReadMem (0x2001DCC4, 0x0004 Bytes, ...) -- CPU_ReadMem(64 bytes @ 0x2001DCC0) -- Updating C cache (64 bytes @ 0x2001DCC0) -- Read from C cache (4 bytes @ 0x2001DCC4) - Data: 81 00 00 00  returns 0x00 (0001ms, 0666ms total)
T0A00 011:287 JLINK_ReadMem (0x2001DCB0, 0x0004 Bytes, ...) -- Read from C cache (4 bytes @ 0x2001DCB0) - Data: A0 1E 01 00  returns 0x00 (0000ms, 0666ms total)
T0A00 011:287 JLINK_ReadMem (0x2001DCB4, 0x0004 Bytes, ...) -- Read from C cache (4 bytes @ 0x2001DCB4) - Data: 50 0B 00 00  returns 0x00 (0000ms, 0666ms total)
T0A00 011:287 JLINK_ReadMem (0x2001DCB8, 0x0004 Bytes, ...) -- Read from C cache (4 bytes @ 0x2001DCB8) - Data: 8C 00 00 00  returns 0x00 (0000ms, 0666ms total)
T0A00 011:287 JLINK_ReadMem (0x2001DCBC, 0x0004 Bytes, ...) -- Read from C cache (4 bytes @ 0x2001DCBC) - Data: 73 68 72 78  returns 0x00 (0000ms, 0666ms total)
T0A00 011:287 JLINK_ReadMem (0x2001DCC0, 0x0004 Bytes, ...) -- Read from C cache (4 bytes @ 0x2001DCC0) - Data: 00 00 00 00  returns 0x00 (0000ms, 0666ms total)
T0A00 011:291 JLINK_ReadMem (0x20000814, 0x0020 Bytes, ...) -- CPU_ReadMem(64 bytes @ 0x20000800) -- Updating C cache (64 bytes @ 0x20000800) -- Read from C cache (32 bytes @ 0x20000814) - Data: 73 70 69 5F 66 6C 61 73 87 00 00 00 20 08 00 20 ...  returns 0x00 (0002ms, 0668ms total)
T0A00 011:293 JLINK_ReadMem (0x08000E30, 0x0020 Bytes, ...) -- CPU_ReadMem(128 bytes @ 0x08000E00) -- Updating C cache (128 bytes @ 0x08000E00) -- Read from C cache (32 bytes @ 0x08000E30) - Data: 73 70 69 5F 6D 73 64 00 14 08 00 20 00 00 02 40 ...  returns 0x00 (0001ms, 0669ms total)
T0A00 011:306 JLINK_ReadMem (0x40020C00, 0x0014 Bytes, ...) -- CPU_ReadMem(20 bytes @ 0x40020C00) - Data: 50 00 00 10 00 00 00 00 F0 00 00 30 10 00 00 00 ...  returns 0x00 (0000ms, 0669ms total)
T0A00 011:306 JLINK_ReadMem (0x40020C14, 0x0004 Bytes, ...) -- CPU_ReadMem(4 bytes @ 0x40020C14) - Data: 04 40 00 00  returns 0x00 (0001ms, 0670ms total)
T0A00 011:307 JLINK_ReadMem (0x40020C1C, 0x0008 Bytes, ...) -- CPU_ReadMem(8 bytes @ 0x40020C1C) - Data: 00 00 00 00 00 00 00 00  returns 0x00 (0001ms, 0671ms total)
T0A00 011:308 JLINK_ReadMem (0x40020C24, 0x0004 Bytes, ...) -- CPU_ReadMem(4 bytes @ 0x40020C24) - Data: 00 00 00 00  returns 0x00 (0000ms, 0671ms total)
T0A00 011:312 JLINK_ReadMem (0x08009D0C, 0x003C Bytes, ...) -- CPU_ReadMem(128 bytes @ 0x08009D00) -- Updating C cache (128 bytes @ 0x08009D00) -- Read from C cache (60 bytes @ 0x08009D0C) - Data: 03 46 00 20 0B E0 11 F8 01 5B 1C 78 64 1B 64 B2 ...  returns 0x00 (0001ms, 0672ms total)
T0A00 029:525 JLINK_ReadMem (0x08009D0A, 0x0002 Bytes, ...) -- Read from C cache (2 bytes @ 0x08009D0A) - Data: 30 B5  returns 0x00 (0000ms, 0672ms total)
T24C4 031:412 JLINK_SetBPEx(Addr = 0x08009D30, Type = 0xFFFFFFF2)  returns 0x00000002 (0000ms, 0672ms total)
T24C4 031:412 JLINK_Go() -- CPU_WriteMem(4 bytes @ 0xE0002000) -- CPU_ReadMem(4 bytes @ 0xE0001000) -- CPU_WriteMem(4 bytes @ 0xE0002008) (0003ms, 0675ms total)
T24C4 031:515 JLINK_IsHalted()  returns TRUE (0002ms, 0677ms total)
T24C4 031:517 JLINK_Halt()  returns 0x00 (0000ms, 0675ms total)
T24C4 031:517 JLINK_IsHalted()  returns TRUE (0000ms, 0675ms total)
T24C4 031:517 JLINK_IsHalted()  returns TRUE (0000ms, 0675ms total)
T24C4 031:517 JLINK_IsHalted()  returns TRUE (0000ms, 0675ms total)
T24C4 031:517 JLINK_ReadReg(R15 (PC))  returns 0x08009D30 (0000ms, 0675ms total)
T24C4 031:517 JLINK_ReadReg(XPSR)  returns 0xA1000000 (0000ms, 0675ms total)
T24C4 031:517 JLINK_ClrBPEx(BPHandle = 0x00000002)  returns 0x00 (0000ms, 0675ms total)
T24C4 031:517 JLINK_ReadMemU32(0xE000ED30, 0x0001 Items, ...) -- CPU_ReadMem(4 bytes @ 0xE000ED30) - Data: 03 00 00 00  returns 0x01 (0001ms, 0676ms total)
T24C4 031:518 JLINK_ReadMemU32(0xE0001028, 0x0001 Items, ...) -- CPU_ReadMem(4 bytes @ 0xE0001028) - Data: 00 00 00 00  returns 0x01 (0001ms, 0677ms total)
T24C4 031:519 JLINK_ReadMemU32(0xE0001038, 0x0001 Items, ...) -- CPU_ReadMem(4 bytes @ 0xE0001038) - Data: 00 02 00 00  returns 0x01 (0000ms, 0677ms total)
T24C4 031:519 JLINK_ReadMemU32(0xE0001048, 0x0001 Items, ...) -- CPU_ReadMem(4 bytes @ 0xE0001048) - Data: 00 00 00 00  returns 0x01 (0001ms, 0678ms total)
T24C4 031:520 JLINK_ReadMemU32(0xE0001058, 0x0001 Items, ...) -- CPU_ReadMem(4 bytes @ 0xE0001058) - Data: 00 00 00 00  returns 0x01 (0001ms, 0679ms total)
T24C4 031:521 JLINK_ReadReg(R0)  returns 0xFFFFFFF9 (0000ms, 0679ms total)
T24C4 031:521 JLINK_ReadReg(R1)  returns 0x08000E35 (0000ms, 0679ms total)
T24C4 031:521 JLINK_ReadReg(R2)  returns 0x00000004 (0000ms, 0679ms total)
T24C4 031:521 JLINK_ReadReg(R3)  returns 0x20000818 (0000ms, 0679ms total)
T24C4 031:521 JLINK_ReadReg(R4)  returns 0xFFFFFFF9 (0000ms, 0679ms total)
T24C4 031:521 JLINK_ReadReg(R5)  returns 0x0000006D (0000ms, 0679ms total)
T24C4 031:521 JLINK_ReadReg(R6)  returns 0x08000E30 (0000ms, 0679ms total)
T24C4 031:521 JLINK_ReadReg(R7)  returns 0x20000814 (0000ms, 0679ms total)
T24C4 031:521 JLINK_ReadReg(R8)  returns 0xDEADBEEF (0000ms, 0679ms total)
T24C4 031:521 JLINK_ReadReg(R9)  returns 0xDEADBEEF (0000ms, 0679ms total)
T24C4 031:521 JLINK_ReadReg(R10)  returns 0xDEADBEEF (0000ms, 0679ms total)
T24C4 031:521 JLINK_ReadReg(R11)  returns 0xDEADBEEF (0000ms, 0679ms total)
T24C4 031:521 JLINK_ReadReg(R12)  returns 0x000000A0 (0000ms, 0679ms total)
T24C4 031:521 JLINK_ReadReg(R13 (SP))  returns 0x2001DC4C (0000ms, 0679ms total)
T24C4 031:521 JLINK_ReadReg(R14)  returns 0x08007FFD (0000ms, 0679ms total)
T24C4 031:521 JLINK_ReadReg(R15 (PC))  returns 0x08009D30 (0000ms, 0679ms total)
T24C4 031:521 JLINK_ReadReg(XPSR)  returns 0xA1000000 (0000ms, 0679ms total)
T24C4 031:521 JLINK_ReadReg(MSP)  returns 0x2001D3F8 (0000ms, 0679ms total)
T24C4 031:521 JLINK_ReadReg(PSP)  returns 0x2001DC4C (0000ms, 0679ms total)
T24C4 031:521 JLINK_ReadReg(CFBP)  returns 0x02000000 (0000ms, 0679ms total)
T24C4 031:521 JLINK_ReadReg(FPSCR)  returns 0x03000000 (0004ms, 0683ms total)
T24C4 031:525 JLINK_ReadReg(FPS0)  returns 0x00000000 (0000ms, 0683ms total)
T24C4 031:525 JLINK_ReadReg(FPS1)  returns 0x00000000 (0000ms, 0683ms total)
T24C4 031:525 JLINK_ReadReg(FPS2)  returns 0x00000000 (0000ms, 0683ms total)
T24C4 031:525 JLINK_ReadReg(FPS3)  returns 0x00000000 (0000ms, 0683ms total)
T24C4 031:525 JLINK_ReadReg(FPS4)  returns 0x00000000 (0000ms, 0683ms total)
T24C4 031:525 JLINK_ReadReg(FPS5)  returns 0x00000000 (0000ms, 0683ms total)
T24C4 031:525 JLINK_ReadReg(FPS6)  returns 0x00000000 (0000ms, 0683ms total)
T24C4 031:525 JLINK_ReadReg(FPS7)  returns 0x00000000 (0000ms, 0683ms total)
T24C4 031:525 JLINK_ReadReg(FPS8)  returns 0x00000000 (0000ms, 0683ms total)
T24C4 031:525 JLINK_ReadReg(FPS9)  returns 0x00000000 (0000ms, 0683ms total)
T24C4 031:525 JLINK_ReadReg(FPS10)  returns 0x00000000 (0000ms, 0683ms total)
T24C4 031:525 JLINK_ReadReg(FPS11)  returns 0x00000000 (0001ms, 0684ms total)
T24C4 031:526 JLINK_ReadReg(FPS12)  returns 0x00000000 (0000ms, 0684ms total)
T24C4 031:526 JLINK_ReadReg(FPS13)  returns 0x00000000 (0000ms, 0684ms total)
T24C4 031:526 JLINK_ReadReg(FPS14)  returns 0x00000000 (0000ms, 0684ms total)
T24C4 031:526 JLINK_ReadReg(FPS15)  returns 0x00000000 (0000ms, 0684ms total)
T24C4 031:526 JLINK_ReadReg(FPS16)  returns 0x00000000 (0000ms, 0684ms total)
T24C4 031:526 JLINK_ReadReg(FPS17)  returns 0x00000000 (0000ms, 0684ms total)
T24C4 031:526 JLINK_ReadReg(FPS18)  returns 0x00000000 (0000ms, 0684ms total)
T24C4 031:526 JLINK_ReadReg(FPS19)  returns 0x00000000 (0000ms, 0684ms total)
T24C4 031:526 JLINK_ReadReg(FPS20)  returns 0x00000000 (0000ms, 0684ms total)
T24C4 031:526 JLINK_ReadReg(FPS21)  returns 0x00000000 (0000ms, 0684ms total)
T24C4 031:526 JLINK_ReadReg(FPS22)  returns 0x00000000 (0000ms, 0684ms total)
T24C4 031:526 JLINK_ReadReg(FPS23)  returns 0x00000000 (0000ms, 0684ms total)
T24C4 031:526 JLINK_ReadReg(FPS24)  returns 0x00000000 (0000ms, 0684ms total)
T24C4 031:526 JLINK_ReadReg(FPS25)  returns 0x00000000 (0000ms, 0684ms total)
T24C4 031:526 JLINK_ReadReg(FPS26)  returns 0x00000000 (0000ms, 0684ms total)
T24C4 031:526 JLINK_ReadReg(FPS27)  returns 0x00000000 (0000ms, 0684ms total)
T24C4 031:526 JLINK_ReadReg(FPS28)  returns 0x00000000 (0000ms, 0684ms total)
T24C4 031:526 JLINK_ReadReg(FPS29)  returns 0x00000000 (0000ms, 0684ms total)
T24C4 031:526 JLINK_ReadReg(FPS30)  returns 0x00000000 (0000ms, 0684ms total)
T24C4 031:526 JLINK_ReadReg(FPS31)  returns 0x00000000 (0000ms, 0684ms total)
T0A00 031:527 JLINK_ReadMem (0x2001DC54, 0x0004 Bytes, ...) -- CPU_ReadMem(64 bytes @ 0x2001DC40) -- Updating C cache (64 bytes @ 0x2001DC40) -- Read from C cache (4 bytes @ 0x2001DC54) - Data: FD 7F 00 08  returns 0x00 (0001ms, 0685ms total)
T0A00 031:528 JLINK_ReadMem (0x2001DC4C, 0x0004 Bytes, ...) -- Read from C cache (4 bytes @ 0x2001DC4C) - Data: 20 08 00 20  returns 0x00 (0000ms, 0685ms total)
T0A00 031:528 JLINK_ReadMem (0x2001DC50, 0x0004 Bytes, ...) -- Read from C cache (4 bytes @ 0x2001DC50) - Data: C4 00 00 20  returns 0x00 (0000ms, 0685ms total)
T0A00 031:528 JLINK_ReadMem (0x2001DC6C, 0x0004 Bytes, ...) -- Read from C cache (4 bytes @ 0x2001DC6C) - Data: BF 3D 00 08  returns 0x00 (0000ms, 0685ms total)
T0A00 031:528 JLINK_ReadMem (0x2001DC58, 0x0004 Bytes, ...) -- Read from C cache (4 bytes @ 0x2001DC58) - Data: 4C 0E 00 08  returns 0x00 (0000ms, 0685ms total)
T0A00 031:528 JLINK_ReadMem (0x2001DC5C, 0x0004 Bytes, ...) -- Read from C cache (4 bytes @ 0x2001DC5C) - Data: 30 0E 00 08  returns 0x00 (0000ms, 0685ms total)
T0A00 031:528 JLINK_ReadMem (0x2001DC60, 0x0004 Bytes, ...) -- Read from C cache (4 bytes @ 0x2001DC60) - Data: EF BE AD DE  returns 0x00 (0000ms, 0685ms total)
T0A00 031:528 JLINK_ReadMem (0x2001DC64, 0x0004 Bytes, ...) -- Read from C cache (4 bytes @ 0x2001DC64) - Data: 00 00 00 00  returns 0x00 (0000ms, 0685ms total)
T0A00 031:528 JLINK_ReadMem (0x2001DC68, 0x0004 Bytes, ...) -- Read from C cache (4 bytes @ 0x2001DC68) - Data: EF BE AD DE  returns 0x00 (0000ms, 0685ms total)
T0A00 031:528 JLINK_ReadMem (0x2001DC84, 0x0004 Bytes, ...) -- CPU_ReadMem(64 bytes @ 0x2001DC80) -- Updating C cache (64 bytes @ 0x2001DC80) -- Read from C cache (4 bytes @ 0x2001DC84) - Data: 05 0E 00 08  returns 0x00 (0001ms, 0686ms total)
T0A00 031:529 JLINK_ReadMem (0x2001DC70, 0x0004 Bytes, ...) -- Read from C cache (4 bytes @ 0x2001DC70) - Data: 00 00 00 00  returns 0x00 (0000ms, 0686ms total)
T0A00 031:529 JLINK_ReadMem (0x2001DC74, 0x0004 Bytes, ...) -- Read from C cache (4 bytes @ 0x2001DC74) - Data: EF BE AD DE  returns 0x00 (0000ms, 0686ms total)
T0A00 031:529 JLINK_ReadMem (0x2001DC78, 0x0004 Bytes, ...) -- Read from C cache (4 bytes @ 0x2001DC78) - Data: EF BE AD DE  returns 0x00 (0001ms, 0687ms total)
T0A00 031:530 JLINK_ReadMem (0x2001DC7C, 0x0004 Bytes, ...) -- Read from C cache (4 bytes @ 0x2001DC7C) - Data: EF BE AD DE  returns 0x00 (0000ms, 0687ms total)
T0A00 031:530 JLINK_ReadMem (0x2001DC80, 0x0004 Bytes, ...) -- Read from C cache (4 bytes @ 0x2001DC80) - Data: EF BE AD DE  returns 0x00 (0000ms, 0687ms total)
T0A00 031:530 JLINK_ReadMem (0x2001DC9C, 0x0004 Bytes, ...) -- Read from C cache (4 bytes @ 0x2001DC9C) - Data: A1 7E 00 08  returns 0x00 (0000ms, 0687ms total)
T0A00 031:530 JLINK_ReadMem (0x2001DCAC, 0x0004 Bytes, ...) -- Read from C cache (4 bytes @ 0x2001DCAC) - Data: 69 B3 00 08  returns 0x00 (0000ms, 0687ms total)
T0A00 031:530 JLINK_ReadMem (0x2001DCA4, 0x0004 Bytes, ...) -- Read from C cache (4 bytes @ 0x2001DCA4) - Data: EF BE AD DE  returns 0x00 (0000ms, 0687ms total)
T0A00 031:530 JLINK_ReadMem (0x2001DCA8, 0x0004 Bytes, ...) -- Read from C cache (4 bytes @ 0x2001DCA8) - Data: EF BE AD DE  returns 0x00 (0000ms, 0687ms total)
T0A00 031:530 JLINK_ReadMem (0x2001DCC4, 0x0004 Bytes, ...) -- CPU_ReadMem(64 bytes @ 0x2001DCC0) -- Updating C cache (64 bytes @ 0x2001DCC0) -- Read from C cache (4 bytes @ 0x2001DCC4) - Data: 81 00 00 00  returns 0x00 (0001ms, 0688ms total)
T0A00 031:531 JLINK_ReadMem (0x2001DCB0, 0x0004 Bytes, ...) -- Read from C cache (4 bytes @ 0x2001DCB0) - Data: A0 1E 01 00  returns 0x00 (0000ms, 0688ms total)
T0A00 031:531 JLINK_ReadMem (0x2001DCB4, 0x0004 Bytes, ...) -- Read from C cache (4 bytes @ 0x2001DCB4) - Data: 50 0B 00 00  returns 0x00 (0000ms, 0688ms total)
T0A00 031:531 JLINK_ReadMem (0x2001DCB8, 0x0004 Bytes, ...) -- Read from C cache (4 bytes @ 0x2001DCB8) - Data: 8C 00 00 00  returns 0x00 (0000ms, 0688ms total)
T0A00 031:531 JLINK_ReadMem (0x2001DCBC, 0x0004 Bytes, ...) -- Read from C cache (4 bytes @ 0x2001DCBC) - Data: 73 68 72 78  returns 0x00 (0000ms, 0688ms total)
T0A00 031:531 JLINK_ReadMem (0x2001DCC0, 0x0004 Bytes, ...) -- Read from C cache (4 bytes @ 0x2001DCC0) - Data: 00 00 00 00  returns 0x00 (0000ms, 0688ms total)
T0A00 031:531 JLINK_ReadMem (0x20000818, 0x0020 Bytes, ...) -- CPU_ReadMem(64 bytes @ 0x20000800) -- Updating C cache (64 bytes @ 0x20000800) -- Read from C cache (32 bytes @ 0x20000818) - Data: 66 6C 61 73 87 00 00 00 20 08 00 20 C8 00 00 20 ...  returns 0x00 (0001ms, 0689ms total)
T0A00 031:544 JLINK_ReadMem (0x08000E35, 0x0020 Bytes, ...) -- CPU_ReadMem(128 bytes @ 0x08000E00) -- Updating C cache (128 bytes @ 0x08000E00) -- Read from C cache (32 bytes @ 0x08000E35) - Data: 73 64 00 14 08 00 20 00 00 02 40 73 70 69 5F 66 ...  returns 0x00 (0002ms, 0691ms total)
T0A00 031:565 JLINK_ReadMem (0x40020C00, 0x0014 Bytes, ...) -- CPU_ReadMem(20 bytes @ 0x40020C00) - Data: 50 00 00 10 00 00 00 00 F0 00 00 30 10 00 00 00 ...  returns 0x00 (0001ms, 0692ms total)
T0A00 031:566 JLINK_ReadMem (0x40020C14, 0x0004 Bytes, ...) -- CPU_ReadMem(4 bytes @ 0x40020C14) - Data: 04 40 00 00  returns 0x00 (0000ms, 0692ms total)
T0A00 031:566 JLINK_ReadMem (0x40020C1C, 0x0008 Bytes, ...) -- CPU_ReadMem(8 bytes @ 0x40020C1C) - Data: 00 00 00 00 00 00 00 00  returns 0x00 (0001ms, 0693ms total)
T0A00 031:567 JLINK_ReadMem (0x40020C24, 0x0004 Bytes, ...) -- CPU_ReadMem(4 bytes @ 0x40020C24) - Data: 00 00 00 00  returns 0x00 (0001ms, 0694ms total)
T24C4 042:765 JLINK_ReadMem (0x08009D30, 0x003C Bytes, ...) -- CPU_ReadMem(128 bytes @ 0x08009D00) -- Updating C cache (128 bytes @ 0x08009D00) -- Read from C cache (60 bytes @ 0x08009D30) - Data: 30 BD 02 46 01 E0 52 1C 49 1C 10 78 18 B1 10 78 ...  returns 0x00 (0002ms, 0696ms total)
T24C4 042:767 JLINK_Step() -- Read from C cache (2 bytes @ 0x08009D30) -- CPU_ReadMem(4 bytes @ 0xE000ED18) -- CPU_WriteMem(4 bytes @ 0xE000ED18) -- CPU_ReadMem(4 bytes @ 0xE000ED18) -- CPU_WriteMem(4 bytes @ 0xE000ED18) -- CPU_ReadMem(4 bytes @ 0xE0001004) -- Read from C cache (12 bytes @ 0x2001DC4C) -- Simulated  returns 0x00 (0003ms, 0699ms total)
T24C4 042:770 JLINK_ReadReg(R15 (PC))  returns 0x08007FFC (0000ms, 0699ms total)
T24C4 042:770 JLINK_ReadReg(XPSR)  returns 0xA1000000 (0000ms, 0699ms total)
T24C4 042:770 JLINK_ReadMem (0x08007FFA, 0x0002 Bytes, ...) -- CPU_ReadMem(64 bytes @ 0x08007FC0) -- Updating C cache (64 bytes @ 0x08007FC0) -- Read from C cache (2 bytes @ 0x08007FFA) - Data: 87 FE  returns 0x00 (0001ms, 0700ms total)
T24C4 042:771 JLINK_ReadMem (0x08007FFC, 0x0004 Bytes, ...) -- Read from C cache (4 bytes @ 0x08007FFC) - Data: 38 B9 03 F0  returns 0x00 (0000ms, 0700ms total)
T24C4 042:771 JLINK_ReadMem (0x08008000, 0x0038 Bytes, ...) -- CPU_ReadMem(64 bytes @ 0x08008000) -- Updating C cache (64 bytes @ 0x08008000) -- Read from C cache (56 bytes @ 0x08008000) - Data: 66 FA 08 B1 03 F0 33 F9 38 46 BD E8 F0 81 24 68 ...  returns 0x00 (0002ms, 0702ms total)
T24C4 042:773 JLINK_Step() -- Read from C cache (2 bytes @ 0x08007FFC) -- Simulated  returns 0x00 (0000ms, 0702ms total)
T24C4 042:773 JLINK_ReadReg(R15 (PC))  returns 0x0800800E (0000ms, 0702ms total)
T24C4 042:773 JLINK_ReadReg(XPSR)  returns 0xA1000000 (0000ms, 0702ms total)
T24C4 042:773 JLINK_ReadReg(R0)  returns 0xFFFFFFF9 (0000ms, 0702ms total)
T24C4 042:773 JLINK_ReadReg(R1)  returns 0x08000E35 (0000ms, 0702ms total)
T24C4 042:773 JLINK_ReadReg(R2)  returns 0x00000004 (0000ms, 0702ms total)
T24C4 042:773 JLINK_ReadReg(R3)  returns 0x20000818 (0000ms, 0702ms total)
T24C4 042:773 JLINK_ReadReg(R4)  returns 0x20000820 (0000ms, 0702ms total)
T24C4 042:773 JLINK_ReadReg(R5)  returns 0x200000C4 (0000ms, 0702ms total)
T24C4 042:773 JLINK_ReadReg(R6)  returns 0x08000E30 (0000ms, 0702ms total)
T24C4 042:773 JLINK_ReadReg(R7)  returns 0x20000814 (0000ms, 0702ms total)
T24C4 042:773 JLINK_ReadReg(R8)  returns 0xDEADBEEF (0000ms, 0702ms total)
T24C4 042:773 JLINK_ReadReg(R9)  returns 0xDEADBEEF (0000ms, 0702ms total)
T24C4 042:773 JLINK_ReadReg(R10)  returns 0xDEADBEEF (0000ms, 0702ms total)
T24C4 042:773 JLINK_ReadReg(R11)  returns 0xDEADBEEF (0000ms, 0702ms total)
T24C4 042:773 JLINK_ReadReg(R12)  returns 0x000000A0 (0000ms, 0702ms total)
T24C4 042:773 JLINK_ReadReg(R13 (SP))  returns 0x2001DC58 (0000ms, 0702ms total)
T24C4 042:773 JLINK_ReadReg(R14)  returns 0x08007FFD (0000ms, 0702ms total)
T24C4 042:773 JLINK_ReadReg(R15 (PC))  returns 0x0800800E (0000ms, 0702ms total)
T24C4 042:773 JLINK_ReadReg(XPSR)  returns 0xA1000000 (0000ms, 0702ms total)
T24C4 042:773 JLINK_ReadReg(MSP)  returns 0x2001D3F8 (0000ms, 0702ms total)
T24C4 042:773 JLINK_ReadReg(PSP)  returns 0x2001DC58 (0000ms, 0702ms total)
T24C4 042:773 JLINK_ReadReg(CFBP)  returns 0x02000000 (0000ms, 0702ms total)
T24C4 042:773 JLINK_ReadReg(FPSCR)  returns 0x03000000 (0001ms, 0703ms total)
T24C4 042:774 JLINK_ReadReg(FPS0)  returns 0x00000000 (0000ms, 0703ms total)
T24C4 042:774 JLINK_ReadReg(FPS1)  returns 0x00000000 (0000ms, 0703ms total)
T24C4 042:774 JLINK_ReadReg(FPS2)  returns 0x00000000 (0000ms, 0703ms total)
T24C4 042:774 JLINK_ReadReg(FPS3)  returns 0x00000000 (0000ms, 0703ms total)
T24C4 042:774 JLINK_ReadReg(FPS4)  returns 0x00000000 (0000ms, 0703ms total)
T24C4 042:774 JLINK_ReadReg(FPS5)  returns 0x00000000 (0000ms, 0703ms total)
T24C4 042:774 JLINK_ReadReg(FPS6)  returns 0x00000000 (0000ms, 0703ms total)
T24C4 042:774 JLINK_ReadReg(FPS7)  returns 0x00000000 (0000ms, 0703ms total)
T24C4 042:774 JLINK_ReadReg(FPS8)  returns 0x00000000 (0000ms, 0703ms total)
T24C4 042:774 JLINK_ReadReg(FPS9)  returns 0x00000000 (0000ms, 0703ms total)
T24C4 042:774 JLINK_ReadReg(FPS10)  returns 0x00000000 (0000ms, 0703ms total)
T24C4 042:774 JLINK_ReadReg(FPS11)  returns 0x00000000 (0000ms, 0703ms total)
